"Freq [GHz]","dB(S(WavePort1,WavePort1)) [] - split1x='16mm' split2x='15mm'","dB(S(WavePort1,WavePort1)) [] - split1x='17mm' split2x='15mm'","dB(S(WavePort1,WavePort1)) [] - split1x='18mm' split2x='15mm'","dB(S(WavePort1,WavePort1)) [] - split1x='19mm' split2x='15mm'","dB(S(WavePort1,WavePort1)) [] - split1x='20mm' split2x='15mm'","dB(S(WavePort1,WavePort1)) [] - split1x='21mm' split2x='15mm'","dB(S(WavePort1,WavePort1)) [] - split1x='22mm' split2x='15mm'","dB(S(WavePort1,WavePort1)) [] - split1x='23mm' split2x='15mm'","dB(S(WavePort1,WavePort1)) [] - split1x='24mm' split2x='15mm'","dB(S(WavePort1,WavePort1)) [] - split1x='25mm' split2x='15mm'"
1,-2.39257299399456,-16.1189782369212,-6.9181792067296,-4.83062297681291,-1.91906043591262,-3.1662583940172,-4.18356152549867,-18.0643959619401,-6.25143959379858,-3.16330199944265
1.001,-2.39834674438446,-15.1401190509392,-6.66977106784856,-4.68321660212511,-1.91033196824185,-3.16082719377582,-4.1680498986967,-16.7048965733802,-6.09939078589723,-3.14665541066468
1.002,-2.40762297972932,-14.2654296473721,-6.43373347130204,-4.54203114613124,-1.90168365752249,-3.15533155326364,-4.15237789761174,-15.4658283124126,-5.94620818326999,-3.13011194009864
1.003,-2.42042488499696,-13.476875932147,-6.20925111990947,-4.40673921700719,-1.89311478509321,-3.14977198998302,-4.1365503416176,-14.3518007422137,-5.79268731867545,-3.11367171552314
1.004,-2.4367904102403,-12.7607127221109,-5.99558136409259,-4.27703475596479,-1.88462463861965,-3.14414903132868,-4.12057205149646,-13.3527972541767,-5.63952848897182,-3.09733484097225
1.005,-2.45677245186194,-12.1062496829309,-5.79204552699124,-4.15263127434119,-1.87621251209985,-3.13846321442955,-4.10444784597639,-12.4552975890278,-5.48734114989893,-3.08110139743608
1.006,-2.48043914422483,-11.5050194647265,-5.5980215316565,-4.0332602770387,-1.8678777058668,-3.13271508598718,-4.08818253834965,-11.6461698959089,-5.33664961332556,-3.06497144354783
1.007,-2.50787426381097,-10.9502051760283,-5.41293760135154,-3.91866984807198,-1.85961952658842,-3.12690520211072,-4.0717809331752,-10.9138255766118,-5.18789953900786,-3.04894501625755
1.008,-2.53917774935135,-10.436238051127,-5.23626684917273,-3.80862337763191,-1.8514372872649,-3.12103412814868,-4.05524782306782,-10.2483879980955,-5.04146481827725,-3.03302213149263
1.009,-2.5744663426196,-9.95850907970241,-5.06752260859063,-3.70289841311946,-1.84333030722374,-3.1151024385175,-4.03858798557651,-9.64153646348991,-4.89765454267281,-3.01720278480511
1.01,-2.61387435592026,-9.51315850588568,-4.90625438439938,-3.60128561914921,-1.83529791211236,-3.10911071652716,-4.02180618015438,-9.08627003786184,-4.7567198329445,-3.00148695200591
1.011,-2.65755457373551,-9.09691957469124,-4.75204432568908,-3.50358783365556,-1.82733943388863,-3.10305955420378,-4.00490714522186,-8.57667719884226,-4.61886037208953,-2.98587458978616
1.012,-2.70567929754878,-8.70700075995691,-4.60450414011068,-3.40961920903004,-1.81945421080921,-3.09694955210944,-3.98789559532501,-8.10773722779247,-4.48423054066479,-2.9703656363256
1.013,-2.75844154457248,-8.34099575098467,-4.46327238287128,-3.31920442873441,-1.81164158741604,-3.09078131915935,-3.97077621839037,-7.67515715707266,-4.35294509492599,-2.9549600118884
1.014,-2.8160564130104,-7.996813774035,-4.32801206532521,-3.23217799111147,-1.80390091452077,-3.08455547243639,-3.95355367307736,-7.27524065926635,-4.22508436013915,-2.93965761940628
1.015,-2.87876262862492,-7.67262502271527,-4.19840853729502,-3.14838355320891,-1.79623154918762,-3.07827263700324,-3.93623258622946,-6.9047834233325,-4.10069893453907,-2.92445834504926
1.016,-2.94682428981798,-7.36681746125114,-4.0741676048013,-3.06767332835107,-1.78863285471432,-3.07193344571216,-3.91881755042452,-6.56098973552481,-3.97981391559536,-2.9093620587841
1.017,-3.02053283123439,-7.07796229132594,-3.95501385105945,-2.98990753198648,-1.78110420061162,-3.06553853901257,-3.90131312162495,-6.2414057702033,-3.86243267103527,-2.89436861492056
1.018,-3.10020922914896,-6.80478609154448,-3.84068913367392,-2.91495387101354,-1.77364496258115,-3.05908856475656,-3.88372381692801,-5.94386596824461,-3.74854018375109,-2.87947785264567
1.019,-3.18620647570683,-6.54614814844948,-3.7309512351493,-2.84268707236579,-1.76625452249198,-3.05258417800237,-3.86605411241603,-5.66644965779143,-3.63810600335878,-2.86468959654621
1.02,-3.27891235358634,-6.30102186475806,-3.62557264730338,-2.77298844713721,-1.75893226835565,-3.04602604081615,-3.84830844110673,-5.40744570906782,-3.53108683861451,-2.85000365711933
1.021,-3.37875254801146,-6.0684793975711,-3.52433947305257,-2.70574548695918,-1.75167759430006,-3.0394148220719,-3.83049119100306,-5.16532351753169,-3.42742882480203,-2.83541983127186
1.022,-3.48619413947447,-5.84767887607651,-3.42705043144188,-2.64085148970986,-1.74448990054206,-3.03275119724986,-3.81260670324215,-4.93870899868893,-3.32706949907104,-2.82093790280807
1.023,-3.60174952829626,-5.63785369481619,-3.33351595380717,-2.57820521196321,-1.73736859335892,-3.02603584823346,-3.79465927034265,-4.72636457637772,-3.22993951491994,-2.80655764290631
1.024,-3.72598085160529,-5.43830348882742,-3.24355736064655,-2.51771054586232,-1.73031308505877,-3.01926946310492,-3.7766531345496,-4.52717237451857,-3.13596412484256,-2.79227881058461
1.025,-3.85950496487025,-5.24838648068812,-3.15700611020304,-2.45927621834819,-1.72332279394996,-3.0124527359396,-3.75859248627588,-4.34011999669636,-3.04506445780098,-2.77810115315534
1.026,-4.00299907432026,-5.06751295362964,-3.07370311096381,-2.40281551088886,-1.71639714430948,-3.00558636659932,-3.74048146263896,-4.1642884113983,-2.95715861577945,-2.76402440666928
1.027,-4.15720712409717,-4.89513965442,-2.99349809130324,-2.34824599804065,-1.70953556635057,-2.99867106052467,-3.72232414609183,-3.99884156315761,-2.87216261131452,-2.75004829634905
1.028,-4.32294706363986,-4.73076496827348,-2.91624902036364,-2.2954893033393,-1.70273749618939,-2.99170752852652,-3.70412456314661,-3.84301740873818,-2.78999116563919,-2.73617253701224
1.029,-4.50111914760561,-4.57392473827079,-2.8418215750093,-2.24447087116336,-1.69600237581099,-2.98469648657679,-3.68588668318928,-3.69612013850589,-2.71055838496724,-2.72239683348436
1.03,-4.69271545381066,-4.42418862562367,-2.77008864832137,-2.19511975334118,-1.68932965303453,-2.97763865559863,-3.6676144173841,-3.55751339052889,-2.63377833048987,-2.70872088100173
1.031,-4.89883084560423,-4.28115692606214,-2.70092989564574,-2.14736840938634,-1.68271878147784,-2.97053476125615,-3.64931161766569,-3.42661430194631,-2.55956549587461,-2.69514436560455
1.032,-5.12067565530238,-4.14445777275246,-2.63423131467284,-2.10115251934808,-1.67616922052132,-2.96338553374375,-3.63098207581727,-3.30288827117574,-2.48783520443996,-2.6816669645203
1.033,-5.35959042623865,-4.01374466830765,-2.56988485643189,-2.05641080835296,-1.66968043527131,-2.95619170757531,-3.61262952263295,-3.18584432743216,-2.41850393672659,-2.66828834653766
1.034,-5.61706312361592,-3.88869429826442,-2.50778806443118,-2.01308488199447,-1.66325189652291,-2.94895402137321,-3.59425762716228,-3.07503102219517,-2.35148959788485,-2.65500817237104
1.035,-5.89474930827671,-3.7690045863621,-2.44784373947961,-1.97111907179981,-1.65688308072231,-2.94167321765733,-3.57586999603486,-2.97003277176306,-2.28671173314137,-2.64182609501603
1.036,-6.1944958593117,-3.65439295844594,-2.38995962798716,-1.93046029006715,-1.65057346992866,-2.93435004263427,-3.55747017286309,-2.87046659166446,-2.22409169857748,-2.62874176009581
1.037,-6.51836892111396,-3.54459478713061,-2.33404813177368,-1.89105789342518,-1.64432255177556,-2.92698524598673,-3.53906163772089,-2.77597917310397,-2.1635527935446,-2.61575480619876
1.038,-6.86868681490422,-3.43936199372483,-2.28002603761572,-1.85286355451916,-1.63812981943216,-2.91957958066331,-3.52064780669616,-2.68624425925943,-2.10502036023662,-2.60286486520743
1.039,-7.2480586443105,-3.33846178752178,-2.22781426493874,-1.81583114127481,-1.63199477156395,-2.91213380266868,-3.5022320315149,-2.6009602855004,-2.04842185523323,-2.590071562619
1.04,-7.65942913727571,-3.24167552554508,-2.1773376302171,-1.77991660323451,-1.62591691229319,-2.90464867085448,-3.48381759923461,-2.51984825275078,-1.99368689720471,-2.57737451785746
1.041,-8.1061296960045,-3.14879767832316,-2.12852462678262,-1.74507786449926,-1.61989575115918,-2.89712494671077,-3.46540773200499,-2.44264980748502,-1.94074729442333,-2.56477334457764
1.042,-8.59193425728538,-3.05963488933413,-2.08130721886277,-1.71127472284462,-1.61393080307819,-2.88956339415836,-3.44700558689332,-2.36912550540965,-1.88953705524594,-2.5522676509612
1.043,-9.12111555803115,-2.97400511750043,-2.03562064877904,-1.67846875461208,-1.60802158830328,-2.88196477934197,-3.42861425577259,-2.2990532388734,-1.83999238431388,-2.53985704000486
1.044,-9.69849104763046,-2.8917368535672,-1.9914032563307,-1.64662322500539,-1.60216763238385,-2.87432987042451,-3.41023676526993,-2.23222681057153,-1.79205166684731,-2.5275411098009
1.045,-10.3294344813863,-2.81266840242874,-1.94859630947587,-1.61570300344992,-1.59636846612515,-2.86665943738233,-3.39187607677312,-2.16845463825875,-1.74565544309079,-2.51531945381026
1.046,-11.0198018960899,-2.73664722450556,-1.90714384549777,-1.58567448369562,-1.59062362554759,-2.85895425180178,-3.37353508649291,-2.10755857701614,-1.70074637468568,-2.50319166112813
1.047,-11.7756640810685,-2.66352933015686,-1.86699252191334,-1.55650550836888,-1.58493265184601,-2.85121508667702,-3.35521662557896,-2.04937284719273,-1.65726920449953,-2.49115731674251
1.048,-12.6026206602918,-2.5931787218633,-1.82809147644231,-1.5281652976975,-1.57929509134884,-2.84344271620924,-3.33692346028702,-1.99374305750054,-1.61517071122917,-2.4792160017856
1.049,-13.5042320834624,-2.5254668795575,-1.79039219541157,-1.50062438215325,-1.57371049547728,-2.83563791560741,-3.3186582921954,-1.94052531392127,-1.57439965990752,-2.46736729377839
1.05,-14.4786396314611,-2.46027228502737,-1.75384839001858,-1.47385453877315,-1.56817842070434,-2.82780146089053,-3.30042375846819,-1.88958540610665,-1.53490674928143,-2.45561076686846
1.051,-15.5116467299368,-2.3974799817915,-1.71841587992428,-1.44782873093759,-1.56269842851407,-2.8199341286916,-3.28222243216344,-1.84079806385393,-1.4966445568873,-2.44394599206121
1.052,-16.5637066655039,-2.33698116725178,-1.68405248368602,-1.42252105139751,-1.55727008536057,-2.81203669606343,-3.26405682258386,-1.79404627702183,-1.45956748252706,-2.4323725374446
1.053,-17.5497812013442,-2.27867281428205,-1.65071791557923,-1.39790666835725,-1.55189296262728,-2.80410994028606,-3.24592937566813,-1.74922067294722,-1.4236316907416,-2.42088996840768
1.054,-18.3227363656163,-2.2224573197167,-1.61837368839025,-1.37396177443232,-1.54656663658615,-2.79615463867634,-3.22784247442065,-1.70621894603274,-1.3887950527848,-2.40949784785281
1.055,-18.6987532441132,-2.16824217747012,-1.5869830217937,-1.35066353831281,-1.54129068835698,-2.78817156839943,-3.2097984393778,-1.6649453347164,-1.35501708852191,-2.39819573640206
1.056,-18.5599274319467,-2.11593967425015,-1.55651075595642,-1.32799005897446,-1.53606470386681,-2.78016150628224,-3.19179952910856,-1.62531014151551,-1.32225890860545,-2.38698319259747
1.057,-17.952591869147,-2.06546660603341,-1.52692327003571,-1.30592032228969,-1.53088827380946,-2.77212522862927,-3.17384794074782,-1.58722929226319,-1.29048315722263,-2.37585977309582
1.058,-17.0459528543492,-2.0167440136485,-1.49818840526341,-1.28443415989966,-1.52576099360512,-2.76406351104039,-3.15594581056006,-1.55062393103622,-1.25965395565501,-2.36482503285758
1.059,-16.012037949622,-1.96969693597257,-1.47027539232928,-1.26351221021818,-1.52068246336022,-2.75597712823119,-3.13809521453204,-1.51542004761362,-1.22973684684754,-2.35387852533048
1.06,-14.9641182945024,-1.92425417938513,-1.44315478279702,-1.24313588144529,-1.51565228782727,-2.74786685385538,-3.12029816899219,-1.48154813460738,-1.20069874114448,-2.34301980262771
1.061,-13.9601778219429,-1.88034810224838,-1.41679838430488,-1.22328731647719,-1.510670076365,-2.73973346032992,-3.10255663125533,-1.4489428716806,-1.17250786331718,-2.33224841570082
1.062,-13.0241342003442,-1.83791441329234,-1.39117919931959,-1.20394935960499,-1.50573544289867,-2.73157771866231,-3.08487250029074,-1.41754283451048,-1.14513370097978,-2.32156391450763
1.063,-12.1623991263223,-1.79689198288256,-1.36627136722835,-1.18510552490236,-1.50084800588048,-2.72340039828068,-3.06724761741204,-1.387290226374,-1.11854695446517,-2.31096584817503
1.064,-11.373315060454,-1.75722266623573,-1.34205010956761,-1.16673996620777,-1.49600738825027,-2.71520226686628,-3.0496837669872,-1.35813063043058,-1.09271948821225,-2.30045376515703
1.065,-10.6519173505767,-1.71885113772724,-1.31849167820131,-1.14883744861281,-1.49121321739643,-2.70698409018873,-3.03218267716711,-1.33001278095245,-1.0676242836983,-2.29002721338796
1.066,-9.99219456276906,-1.68172473550636,-1.2955733062731,-1.13138332137348,-1.48646512511696,-2.69874663194384,-3.01474602063119,-1.30288835191501,-1.04323539393535,-2.27968574043113
1.067,-9.38810799753991,-1.64579331569822,-1.27327316176894,-1.11436349216649,-1.48176274758086,-2.69049065359432,-2.99737541534858,-1.27671176150146,-1.01952789953682,-2.26942889362291
1.068,-8.83401615163505,-1.61100911552958,-1.25157030353693,-1.09776440261689,-1.47710572528969,-2.68221691421308,-2.98007242535342,-1.25143999120737,-0.996477866350346,-2.25925622021246
1.069,-8.3248203394274,-1.57732662476801,-1.23044463962102,-1.08157300502814,-1.47249370303939,-2.67392617032953,-2.96283856153291,-1.22703241834783,-0.974062304643721,-2.24916726749707
1.07,-7.85598381540533,-1.54470246491138,-1.20987688777457,-1.06577674024954,-1.4679263298824,-2.66561917577861,-2.9456752824268,-1.20345066087594,-0.952259129824205,-2.23916158295347
1.071,-7.42349718441392,-1.51309527560765,-1.18984853802823,-1.0503635166199,-1.46340325909002,-2.65729668155281,-2.92858399503697,-1.18065843351766,-0.931047124664977,-2.22923871436489
1.072,-7.02382446036133,-1.48246560782443,-1.17034181719428,-1.03532168992974,-1.45892414811502,-2.64895943565702,-2.91156605564595,-1.15862141431518,-0.910405903008143,-2.21939820994425
1.073,-6.65384556390318,-1.4527758233238,-1.15133965519745,-1.02064004434793,-1.45448865855458,-2.64060818296643,-2.89462277064318,-1.13730712074961,-0.890315874909911,-2.20963961845348
1.074,-6.3108020870932,-1.42399000003001,-1.13282565312844,-1.00630777426162,-1.45009645611345,-2.63224366508739,-2.87775539735773,-1.11668479468546,-0.870758213190347,-2.19996248931895
1.075,-5.99224886783121,-1.39607384290877,-1.11478405292337,-0.992314466981206,-1.44574721056752,-2.62386662022127,-2.8609651448967,-1.09672529544435,-0.851714821348359,-2.19036637274338
1.076,-5.69601192008309,-1.36899460000319,-1.09719970857796,-0.978650086265088,-1.44144059572753,-2.61547778303136,-2.84425317498785,-1.07740100037427,-0.833168302800428,-2.18085081981405
1.077,-5.42015238844816,-1.34272098329775,-1.08005805881097,-0.965304956621293,-1.43717628940322,-2.60707788451286,-2.82762060282575,-1.05868571233442,-0.815101931400975,-2.17141538260757
1.078,-5.16293586072472,-1.31722309410409,-1.06334510109661,-0.952269748345683,-1.43295397336772,-2.59866765186593,-2.8110684979205,-1.04055457356398,-0.79749962320129,-2.16205961429124
1.079,-4.92280629339056,-1.29247235268431,-1.04704736699035,-0.939535463258562,-1.42877333332227,-2.59024780837186,-2.79459788494781,-1.02298398544842,-0.780345909403858,-2.15278306922115
1.08,-4.69836384036821,-1.26844143184709,-1.03115189867738,-0.927093421103802,-1.42463405886124,-2.58181907327227,-2.77820974459993,-1.00595153373598,-0.763625910468784,-2.14358530303694
1.081,-4.48834595538445,-1.24510419426984,-1.01564622667682,-0.914935246576553,-1.42053584343753,-2.57338216165156,-2.76190501443636,-0.989435918795134,-0.747325311329513,-2.13446587275359
1.082,-4.29161122932971,-1.22243563331723,-1.0005183486391,-0.903052856947388,-1.41647838432824,-2.56493778432241,-2.7456845897337,-0.973416890536253,-0.731430337675329,-2.12542433685008
1.083,-4.10712551122242,-1.20041181714189,-0.985756709177398,-0.891438450252762,-1.41246138260064,-2.5564866477144,-2.72954932433367,-0.957875187652042,-0.715927733258965,-2.11646025535503
1.084,-3.93394993870554,-1.17900983586726,-0.971350180677574,-0.880084494023103,-1.40848454307861,-2.54802945376588,-2.7135000314889,-0.94279248085865,-0.700804738188386,-2.10757318992958
1.085,-3.77123056987193,-1.15820775166595,-0.957288045034353,-0.868983714521432,-1.40454757430924,-2.53956689981885,-2.69753748470557,-0.928151319845395,-0.686049068162763,-2.09876270394741
1.086,-3.61818936305333,-1.13798455155967,-0.943559976264421,-0.858129086467199,-1.40065018852987,-2.53109967851714,-2.68166241858231,-0.913935083663858,-0.671648894613696,-2.09002836257201
1.087,-3.47411629625702,-1.11832010277743,-0.930156023950035,-0.847513823220878,-1.39679210163549,-2.52262847770758,-2.66587552964488,-0.900127934308592,-0.657592825713831,-2.0813697328313
1.088,-3.33836245466167,-1.09919511052017,-0.917066597469425,-0.837131367406725,-1.39297303314641,-2.51415398034449,-2.65017747717589,-0.886714773261414,-0.64386988821613,-2.07278638368979
1.089,-3.21033394440939,-1.08059107798929,-0.904282450972714,-0.82697538195198,-1.38919270617632,-2.50567686439711,-2.63456888403913,-0.873681200788485,-0.630469510088254,-2.06427788611806
1.09,-3.08948651512003,-1.06249026854594,-0.891794669064514,-0.817039741521994,-1.3854508474007,-2.49719780276041,-2.61905033749806,-0.861013477796353,-0.61738150390773,-2.05584381315997
1.091,-2.97532079318197,-1.04487566987626,-0.879594653156458,-0.807318524332096,-1.38174718702553,-2.48871746316876,-2.60362239002781,-0.848698490067689,-0.604596050984727,-2.04748373999739
1.092,-2.86737804383097,-1.02773096004609,-0.867674108455166,-0.797806004317705,-1.37808145875644,-2.48023650811293,-2.5882855601204,-0.836723714711319,-0.59210368618053,-2.03919724401275
1.093,-2.76523639303739,-1.01104047533551,-0.856025031552849,-0.788496643645461,-1.37445339976812,-2.47175559476009,-2.57304033308277,-0.825077188673644,-0.579895283390969,-2.03098390484925
1.094,-2.66850745086897,-0.994789179750832,-0.844639698589837,-0.779385085548833,-1.37086275067413,-2.46327537487693,-2.55788716182713,-0.813747479170365,-0.56796204166529,-2.02284330446901
1.095,-2.57683328674487,-0.97896263611804,-0.833510653959846,-0.770466147472697,-1.36730925549708,-2.45479649475581,-2.54282646765341,-0.802723655907519,-0.556295471932012,-2.01477502720908
1.096,-2.48988371422066,-0.963546978667374,-0.822630699530527,-0.761734814512152,-1.36379266163908,-2.44631959514405,-2.52785864102332,-0.791995264971214,-0.544887384304658,-2.0067786598354
1.097,-2.40735384893882,-0.948528887024718,-0.81199288435328,-0.753186233131492,-1.3603127198527,-2.43784531117619,-2.51298404232593,-0.781552304273903,-0.533729875941162,-1.99885379159486
1.098,-2.32896190837909,-0.933895561530295,-0.801590494837781,-0.744815705150115,-1.3568691842121,-2.42937427230931,-2.4982030026343,-0.771385200453486,-0.522815319431995,-1.99100001426532
1.099,-2.25444722623721,-0.919634699810307,-0.791417045368032,-0.736618681982868,-1.35346181208466,-2.42090710226129,-2.48351582445297,-0.761484787129233,-0.512136351693014,-1.98321692220394
1.1,-2.18356845779493,-0.905734474531511,-0.781466269338,-0.728590759122772,-1.35009036410291,-2.41244441895212,-2.46892278245612,-0.751842284425237,-0.501685863340214,-1.97550411239359
1.101,-2.1161019556401,-0.892183512273032,-0.771732110586007,-0.720727670854897,-1.34675460413682,-2.40398683444812,-2.45442412421616,-0.742449279678761,-0.491456988524325,-1.96786118448756
1.102,-2.05184029764753,-0.87897087345368,-0.762208715208322,-0.7130252851906,-1.34345429926645,-2.39553495490909,-2.44002007092255,-0.733297709256658,-0.48144309520443,-1.96028774085259
